Title: MSPICE DRIVEN RUN, UID = 500D825E.500080DB
Date: Wed Feb 27 14:35:28 EST 1991
Plotname: transient
Flags: real
No. Variables: 15
No. Points: 60      
Command: version SPICE 3c1
Variables:
	0	time	time
	1	V(1)	voltage
	2	V(3)	voltage
	3	V(2)	voltage
	4	V(100000)	voltage
	5	V(100001)	voltage
	6	V(100002)	voltage
	7	V(100003)	voltage
	8	v_src002#branch	current
	9	v_src001#branch	current
	10	v0001$04#branch	current
	11	v0001$03#branch	current
	12	v0001$02#branch	current
	13	v0001$01#branch	current
	14	a:u1:e1#branch_1_0	current
Values:
0		0.000000000000000e+00
	0.000000000000000e+00
	0.000000000000000e+00
	0.000000000000000e+00
	0.000000000000000e+00
	0.000000000000000e+00
	0.000000000000000e+00
	0.000000000000000e+00
	0.000000000000000e+00
	0.000000000000000e+00
	0.000000000000000e+00
	0.000000000000000e+00
	0.000000000000000e+00
	0.000000000000000e+00
	0.000000000000000e+00
1		9.999999999999968e-08
	-3.141591206630328e-04
	3.141592446881276e-04
	6.283183653511603e-04
	3.141592446881276e-04
	6.283183653511603e-04
	0.000000000000000e+00
	-3.141591206630328e-04
	-6.283183666077966e-07
	-3.141592453164459e-07
	3.141591209771917e-07
	-3.141591219196693e-07
	6.283183653511587e-16
	3.141592446881268e-16
	3.141591212913508e-07
2		1.999999999999993e-07
	-6.283173731506978e-04
	6.283183653511607e-04
	1.256635738501859e-03
	6.283183653511607e-04
	1.256635738501859e-03
	0.000000000000000e+00
	-6.283173731506978e-04
	-1.256635741015129e-06
	-6.283183666077971e-07
	6.283173737790148e-07
	-6.283173756639688e-07
	1.256635738501855e-15
	6.283183653511590e-16
	6.283173744073323e-07
3		3.999999999999987e-07
	-1.256627800907562e-03
	1.256635738501859e-03
	2.513263539409421e-03
	1.256635738501859e-03
	2.513263539409421e-03
	0.000000000000000e+00
	-1.256627800907562e-03
	-2.513263544435947e-06
	-1.256635741015130e-06
	1.256627802164189e-06
	-1.256627805934089e-06
	2.513263539409415e-15
	1.256635738501856e-15
	1.256627803420817e-06
4		7.999999999999973e-07
	-2.513200038955885e-03
	2.513263539409423e-03
	5.026463578365306e-03
	2.513263539409423e-03
	5.026463578365306e-03
	0.000000000000000e+00
	-2.513200038955885e-03
	-5.026463588418231e-06
	-2.513263544435949e-06
	2.513200041469083e-06
	-2.513200049008810e-06
	5.026463578365295e-15
	2.513263539409416e-15
	2.513200043982283e-06
5		1.599999999999995e-06
	-5.025955584363441e-03
	5.026463578365310e-03
	1.005241916272875e-02
	5.026463578365310e-03
	1.005241916272875e-02
	0.000000000000000e+00
	-5.025955584363441e-03
	-1.005241918283358e-05
	-5.026463588418234e-06
	5.025955589389394e-06
	-5.025955604468276e-06
	1.005241916272873e-14
	5.026463578365296e-15
	5.025955594415349e-06
6		3.199999999999990e-06
	-1.004835551874777e-02
	1.005241916272876e-02
	2.010077468147652e-02
	1.005241916272876e-02
	2.010077468147652e-02
	0.000000000000000e+00
	-1.004835551874777e-02
	-2.010077472167806e-05
	-1.005241918283359e-05
	1.004835552879612e-05
	-1.004835555894931e-05
	2.010077468147647e-14
	1.005241916272873e-14
	1.004835553884447e-05
7		6.399999999999979e-06
	-2.006827538522042e-02
	2.010077468147653e-02
	4.016905006669695e-02
	2.010077468147653e-02
	4.016905006669695e-02
	0.000000000000000e+00
	-2.006827538522042e-02
	-4.016905014703503e-05
	-2.010077472167807e-05
	2.006827540528869e-05
	-2.006827546555851e-05
	4.016905006669686e-14
	2.010077468147648e-14
	2.006827542535696e-05
8		1.279999999999996e-05
	-3.990937088439361e-02
	4.016905006669698e-02
	8.007842095109059e-02
	4.016905006669698e-02
	8.007842095109059e-02
	0.000000000000000e+00
	-3.990937088439361e-02
	-8.007842111124738e-05
	-4.016905014703505e-05
	3.990937092430296e-05
	-3.990937104455043e-05
	8.007842095109039e-14
	4.016905006669687e-14
	3.990937096421233e-05
9		2.559999999999992e-05
	-7.801104906326531e-02
	8.007842095109064e-02
	1.580894700143559e-01
	8.007842095109064e-02
	1.580894700143559e-01
	0.000000000000000e+00
	-7.801104906326531e-02
	-1.580894703305348e-04
	-8.007842111124742e-05
	7.801104914127630e-05
	-7.801104937944420e-05
	1.580894700143555e-13
	8.007842095109041e-14
	7.801104921928735e-05
10		5.119999999999983e-05
	-1.418693550611870e-01
	1.580894700143560e-01
	2.999588250755430e-01
	1.580894700143560e-01
	2.999588250755430e-01
	0.000000000000000e+00
	-1.418693550611870e-01
	-2.999588256754605e-04
	-1.580894703305349e-04
	1.418693552030562e-04
	-1.418693556611045e-04
	2.999588250755422e-13
	1.580894700143556e-13
	1.418693553449256e-04
11		9.119999999999980e-05
	-1.844834739630910e-01
	2.710887933626582e-01
	4.555722673257492e-01
	2.710887933626582e-01
	4.555722673257492e-01
	0.000000000000000e+00
	-1.844834739630910e-01
	-4.555722682368934e-04
	-2.710887939048356e-04
	1.844834741475743e-04
	-1.844834748742354e-04
	4.555722673257479e-13
	2.710887933626575e-13
	1.844834743320578e-04
12		1.311999999999997e-04
	-1.314286062958792e-01
	3.670546108291437e-01
	4.984832171250228e-01
	3.670546108291437e-01
	4.984832171250228e-01
	0.000000000000000e+00
	-1.314286062958792e-01
	-4.984832181219889e-04
	-3.670546115632527e-04
	1.314286064273077e-04
	-1.314286072928455e-04
	4.984832171250215e-13
	3.670546108291427e-13
	1.314286065587363e-04
13		1.711999999999997e-04
	2.188095837772735e-02
	4.399570371648046e-01
	4.180760787870773e-01
	4.399570371648046e-01
	4.180760787870773e-01
	0.000000000000000e+00
	2.188095837772735e-02
	-4.180760796232292e-04
	-4.399570380447185e-04
	-2.188095839960830e-05
	2.188095754157518e-05
	4.180760787870763e-13
	4.399570371648036e-13
	-2.188095842148926e-05
14		2.111999999999997e-04
	2.509728407163041e-01
	4.852153448066026e-01
	2.342425040902985e-01
	4.852153448066026e-01
	2.342425040902985e-01
	0.000000000000000e+00
	2.509728407163041e-01
	-2.342425045587834e-04
	-4.852153457770330e-04
	-2.509728409672768e-04
	2.509728402478189e-04
	2.342425040902979e-13
	4.852153448066013e-13
	-2.509728412182497e-04
15		2.511999999999996e-04
	5.075253244550072e-01
	4.999857878369912e-01
	-7.539536618015939e-03
	4.999857878369912e-01
	-7.539536618015939e-03
	0.000000000000000e+00
	5.075253244550072e-01
	7.539536633095007e-06
	-4.999857888369625e-04
	-5.075253249625322e-04
	5.075253244700860e-04
	-7.539536618015919e-15
	4.999857878369899e-13
	-5.075253254700576e-04
16		2.911999999999995e-04
	7.307966816943853e-01
	4.833402849984815e-01
	-2.474563966959039e-01
	4.833402849984815e-01
	-2.474563966959039e-01
	0.000000000000000e+00
	7.307966816943853e-01
	2.474563971908166e-04
	-4.833402859651617e-04
	-7.307966824251816e-04
	7.307966821892977e-04
	-2.474563966959033e-13
	4.833402849984802e-13
	-7.307966831559783e-04
17		3.311999999999995e-04
	8.624805847226881e-01
	4.363247344522942e-01
	-4.261558502703939e-01
	4.363247344522942e-01
	-4.261558502703939e-01
	0.000000000000000e+00
	8.624805847226881e-01
	4.261558511227053e-04
	-4.363247353249434e-04
	-8.624805855851681e-04
	8.624805855749994e-04
	-4.261558502703927e-13
	4.363247344522931e-13
	-8.624805864476487e-04
18		3.711999999999994e-04
	8.613233361178798e-01
	3.618932961503459e-01
	-4.994300399675338e-01
	3.618932961503459e-01
	-4.994300399675338e-01
	0.000000000000000e+00
	8.613233361178798e-01
	4.994300409663937e-04
	-3.618932968741323e-04
	-8.613233369792026e-04
	8.613233371167393e-04
	-4.994300399675326e-13
	3.618932961503449e-13
	-8.613233378405260e-04
19		4.111999999999994e-04
	7.138746813066835e-01
	2.647227711008296e-01
	-4.491519102058538e-01
	2.647227711008296e-01
	-4.491519102058538e-01
	0.000000000000000e+00
	7.138746813066835e-01
	4.491519111041574e-04
	-2.647227716302750e-04
	-7.138746820205577e-04
	7.138746822049868e-04
	-4.491519102058526e-13
	2.647227711008289e-13
	-7.138746827344323e-04
20		4.511999999999993e-04
	4.386783393289683e-01
	1.509187407607995e-01
	-2.877595985681689e-01
	1.509187407607995e-01
	-2.877595985681689e-01
	0.000000000000000e+00
	4.386783393289683e-01
	2.877595991436878e-04
	-1.509187410626369e-04
	-4.386783397676464e-04
	4.386783399044872e-04
	-2.877595985681681e-13
	1.509187407607991e-13
	-4.386783402063247e-04
21		4.911999999999993e-04
	8.281133763666588e-02
	2.763193089846530e-02
	-5.517940673820059e-02
	2.763193089846530e-02
	-5.517940673820059e-02
	0.000000000000000e+00
	8.281133763666588e-02
	5.517940684855937e-05
	-2.763193095372914e-05
	-8.281133771947717e-05
	8.281133774702464e-05
	-5.517940673820044e-14
	2.763193089846522e-14
	-8.281133780228851e-05
22		5.311999999999992e-04
	-2.884425279224367e-01
	-9.739109480535266e-02
	1.910514331170841e-01
	-9.739109480535266e-02
	1.910514331170841e-01
	0.000000000000000e+00
	-2.884425279224367e-01
	-1.910514334991868e-04
	9.739109500013479e-05
	2.884425282108791e-04
	-2.884425283045394e-04
	1.910514331170836e-13
	-9.739109480535239e-14
	2.884425284993216e-04
23		5.711999999999993e-04
	-6.063133807262679e-01
	-2.162946798431589e-01
	3.900187008831090e-01
	-2.162946798431589e-01
	3.900187008831090e-01
	0.000000000000000e+00
	-6.063133807262679e-01
	-3.900187016631461e-04
	2.162946802757481e-04
	6.063133813325810e-04
	-6.063133815063050e-04
	3.900187008831080e-13
	-2.162946798431583e-13
	6.063133819388944e-04
24		6.111999999999992e-04
	-8.141082274049431e-01
	-3.216076746702312e-01
	4.925005527347118e-01
	-3.216076746702312e-01
	4.925005527347118e-01
	0.000000000000000e+00
	-8.141082274049431e-01
	-4.925005537197126e-04
	3.216076753134463e-04
	8.141082282190508e-04
	-8.141082283899436e-04
	4.925005527347106e-13
	-3.216076746702303e-13
	8.141082290331591e-04
25		6.511999999999992e-04
	-8.798572241978203e-01
	-4.067128765074830e-01
	4.731443476903372e-01
	-4.067128765074830e-01
	4.731443476903372e-01
	0.000000000000000e+00
	-8.798572241978203e-01
	-4.731443486366256e-04
	4.067128773209086e-04
	8.798572250776768e-04
	-8.798572251441083e-04
	4.731443476903360e-13
	-4.067128765074820e-13
	8.798572259575341e-04
26		6.911999999999992e-04
	-8.030013648058080e-01
	-4.662628125284418e-01
	3.367385522773663e-01
	-4.662628125284418e-01
	3.367385522773663e-01
	0.000000000000000e+00
	-8.030013648058080e-01
	-3.367385529508431e-04
	4.662628134609672e-04
	8.030013656088089e-04
	-8.030013654792848e-04
	3.367385522773654e-13
	-4.662628125284406e-13
	8.030013664118103e-04
27		7.311999999999992e-04
	-6.135438791311396e-01
	-4.965157412435658e-01
	1.170281378875738e-01
	-4.965157412435658e-01
	1.170281378875738e-01
	0.000000000000000e+00
	-6.135438791311396e-01
	-1.170281381216300e-04
	4.965157422365969e-04
	6.135438797446831e-04
	-6.135438793651955e-04
	1.170281378875735e-13
	-4.965157412435644e-13
	6.135438803582269e-04
28		7.711999999999993e-04
	-3.639372855697802e-01
	-4.955707598791951e-01
	-1.316334743094148e-01
	-4.955707598791951e-01
	-1.316334743094148e-01
	0.000000000000000e+00
	-3.639372855697802e-01
	1.316334745726816e-04
	4.955707608703362e-04
	3.639372859337173e-04
	-3.639372853065130e-04
	-1.316334743094144e-13
	-4.955707598791937e-13
	3.639372862976546e-04
29		8.111999999999993e-04
	-1.157565214928315e-01
	-4.634872450898511e-01
	-3.477307235970196e-01
	-4.634872450898511e-01
	-3.477307235970196e-01
	0.000000000000000e+00
	-1.157565214928315e-01
	3.477307242924808e-04
	4.634872460168253e-04
	1.157565216085879e-04
	-1.157565207973700e-04
	-3.477307235970187e-13
	-4.634872450898500e-13
	1.157565217243445e-04
30		8.511999999999992e-04
	7.552291547503170e-02
	-4.022811221046625e-01
	-4.778040375796942e-01
	-4.022811221046625e-01
	-4.778040375796942e-01
	0.000000000000000e+00
	7.552291547503170e-02
	4.778040385353020e-04
	4.022811229092245e-04
	-7.552291555055457e-05
	7.552291643063973e-05
	-4.778040375796929e-13
	-4.022811221046614e-13
	-7.552291562607749e-05
31		8.911999999999992e-04
	1.738768194378486e-01
	-3.157981967311623e-01
	-4.896750161690108e-01
	-3.157981967311623e-01
	-4.896750161690108e-01
	0.000000000000000e+00
	1.738768194378486e-01
	4.896750171483605e-04
	3.157981973627585e-04
	-1.738768196117253e-04
	1.738768204171985e-04
	-4.896750161690095e-13
	-3.157981967311614e-13
	-1.738768197856021e-04
32		9.311999999999992e-04
	1.709344286267695e-01
	-2.094725092325184e-01
	-3.804069378592878e-01
	-2.094725092325184e-01
	-3.804069378592878e-01
	0.000000000000000e+00
	1.709344286267695e-01
	3.804069386201015e-04
	2.094725096514633e-04
	-1.709344287977038e-04
	1.709344293875832e-04
	-3.804069378592869e-13
	-2.094725092325178e-13
	-1.709344289686382e-04
33		9.711999999999993e-04
	8.704637180044331e-02
	-8.998489359279624e-02
	-1.770312653932395e-01
	-8.998489359279624e-02
	-1.770312653932395e-01
	0.000000000000000e+00
	8.704637180044331e-02
	1.770312657473020e-04
	8.998489377276597e-05
	-8.704637188748963e-05
	8.704637215450578e-05
	-1.770312653932391e-13
	-8.998489359279599e-14
	-8.704637197453600e-05
34		1.011199999999999e-03
	-3.498277312521020e-02
	3.515680385265064e-02
	7.013957697786084e-02
	3.515680385265064e-02
	7.013957697786084e-02
	0.000000000000000e+00
	-3.498277312521020e-02
	-7.013957711813995e-05
	-3.515680392296423e-05
	3.498277316019296e-05
	-3.498277326548934e-05
	7.013957697786067e-14
	3.515680385265054e-14
	3.498277319517573e-05
35		1.051199999999999e-03
	-1.418693550611843e-01
	1.580894700143550e-01
	2.999588250755393e-01
	1.580894700143550e-01
	2.999588250755393e-01
	0.000000000000000e+00
	-1.418693550611843e-01
	-2.999588256754567e-04
	-1.580894703305338e-04
	1.418693552030535e-04
	-1.418693556611018e-04
	2.999588250755385e-13
	1.580894700143546e-13
	1.418693553449229e-04
36		1.091199999999999e-03
	-1.844834739630899e-01
	2.710887933626572e-01
	4.555722673257471e-01
	2.710887933626572e-01
	4.555722673257471e-01
	0.000000000000000e+00
	-1.844834739630899e-01
	-4.555722682368914e-04
	-2.710887939048346e-04
	1.844834741475733e-04
	-1.844834748742343e-04
	4.555722673257458e-13
	2.710887933626564e-13
	1.844834743320568e-04
37		1.131199999999999e-03
	-1.314286062958806e-01
	3.670546108291426e-01
	4.984832171250233e-01
	3.670546108291426e-01
	4.984832171250233e-01
	0.000000000000000e+00
	-1.314286062958806e-01
	-4.984832181219894e-04
	-3.670546115632517e-04
	1.314286064273091e-04
	-1.314286072928470e-04
	4.984832171250219e-13
	3.670546108291417e-13
	1.314286065587377e-04
38		1.171199999999999e-03
	2.188095837772303e-02
	4.399570371648039e-01
	4.180760787870809e-01
	4.399570371648039e-01
	4.180760787870809e-01
	0.000000000000000e+00
	2.188095837772303e-02
	-4.180760796232327e-04
	-4.399570380447177e-04
	-2.188095839960397e-05
	2.188095754157085e-05
	4.180760787870797e-13
	4.399570371648027e-13
	-2.188095842148493e-05
39		1.211199999999999e-03
	2.509728407162979e-01
	4.852153448066022e-01
	2.342425040903043e-01
	4.852153448066022e-01
	2.342425040903043e-01
	0.000000000000000e+00
	2.509728407162979e-01
	-2.342425045587891e-04
	-4.852153457770325e-04
	-2.509728409672705e-04
	2.509728402478127e-04
	2.342425040903036e-13
	4.852153448066010e-13
	-2.509728412182434e-04
40		1.251199999999999e-03
	5.075253244550004e-01
	4.999857878369912e-01
	-7.539536618009254e-03
	4.999857878369912e-01
	-7.539536618009254e-03
	0.000000000000000e+00
	5.075253244550004e-01
	7.539536633088323e-06
	-4.999857888369625e-04
	-5.075253249625254e-04
	5.075253244700791e-04
	-7.539536618009236e-15
	4.999857878369899e-13
	-5.075253254700508e-04
41		1.291199999999999e-03
	7.307966816943793e-01
	4.833402849984822e-01
	-2.474563966958972e-01
	4.833402849984822e-01
	-2.474563966958972e-01
	0.000000000000000e+00
	7.307966816943793e-01
	2.474563971908098e-04
	-4.833402859651624e-04
	-7.307966824251755e-04
	7.307966821892916e-04
	-2.474563966958965e-13
	4.833402849984808e-13
	-7.307966831559723e-04
42		1.331199999999998e-03
	8.624805847226856e-01
	4.363247344522953e-01
	-4.261558502703902e-01
	4.363247344522953e-01
	-4.261558502703902e-01
	0.000000000000000e+00
	8.624805847226856e-01
	4.261558511227017e-04
	-4.363247353249445e-04
	-8.624805855851655e-04
	8.624805855749967e-04
	-4.261558502703892e-13
	4.363247344522942e-13
	-8.624805864476460e-04
43		1.371199999999998e-03
	8.613233361178812e-01
	3.618932961503478e-01
	-4.994300399675335e-01
	3.618932961503478e-01
	-4.994300399675335e-01
	0.000000000000000e+00
	8.613233361178812e-01
	4.994300409663932e-04
	-3.618932968741342e-04
	-8.613233369792042e-04
	8.613233371167409e-04
	-4.994300399675321e-13
	3.618932961503468e-13
	-8.613233378405274e-04
44		1.411199999999998e-03
	7.138746813066888e-01
	2.647227711008318e-01
	-4.491519102058571e-01
	2.647227711008318e-01
	-4.491519102058571e-01
	0.000000000000000e+00
	7.138746813066888e-01
	4.491519111041606e-04
	-2.647227716302771e-04
	-7.138746820205629e-04
	7.138746822049921e-04
	-4.491519102058559e-13
	2.647227711008310e-13
	-7.138746827344376e-04
45		1.451199999999998e-03
	4.386783393289782e-01
	1.509187407608023e-01
	-2.877595985681759e-01
	1.509187407608023e-01
	-2.877595985681759e-01
	0.000000000000000e+00
	4.386783393289782e-01
	2.877595991436949e-04
	-1.509187410626397e-04
	-4.386783397676563e-04
	4.386783399044972e-04
	-2.877595985681751e-13
	1.509187407608019e-13
	-4.386783402063346e-04
46		1.491199999999998e-03
	8.281133763667818e-02
	2.763193089846808e-02
	-5.517940673821011e-02
	2.763193089846808e-02
	-5.517940673821011e-02
	0.000000000000000e+00
	8.281133763667818e-02
	5.517940684856888e-05
	-2.763193095373192e-05
	-8.281133771948946e-05
	8.281133774703694e-05
	-5.517940673820996e-14
	2.763193089846800e-14
	-8.281133780230080e-05
47		1.531199999999998e-03
	-2.884425279224249e-01
	-9.739109480534927e-02
	1.910514331170756e-01
	-9.739109480534927e-02
	1.910514331170756e-01
	0.000000000000000e+00
	-2.884425279224249e-01
	-1.910514334991784e-04
	9.739109500013139e-05
	2.884425282108673e-04
	-2.884425283045276e-04
	1.910514331170752e-13
	-9.739109480534900e-14
	2.884425284993098e-04
48		1.571199999999997e-03
	-6.063133807262582e-01
	-2.162946798431558e-01
	3.900187008831025e-01
	-2.162946798431558e-01
	3.900187008831025e-01
	0.000000000000000e+00
	-6.063133807262582e-01
	-3.900187016631397e-04
	2.162946802757450e-04
	6.063133813325711e-04
	-6.063133815062951e-04
	3.900187008831015e-13
	-2.162946798431552e-13
	6.063133819388845e-04
49		1.611199999999998e-03
	-8.141082274049383e-01
	-3.216076746702281e-01
	4.925005527347102e-01
	-3.216076746702281e-01
	4.925005527347102e-01
	0.000000000000000e+00
	-8.141082274049383e-01
	-4.925005537197110e-04
	3.216076753134432e-04
	8.141082282190460e-04
	-8.141082283899388e-04
	4.925005527347089e-13
	-3.216076746702272e-13
	8.141082290331543e-04
50		1.651199999999997e-03
	-8.798572241978217e-01
	-4.067128765074806e-01
	4.731443476903411e-01
	-4.067128765074806e-01
	4.731443476903411e-01
	0.000000000000000e+00
	-8.798572241978217e-01
	-4.731443486366294e-04
	4.067128773209062e-04
	8.798572250776784e-04
	-8.798572251441099e-04
	4.731443476903398e-13
	-4.067128765074796e-13
	8.798572259575357e-04
51		1.691199999999997e-03
	-8.030013648058157e-01
	-4.662628125284400e-01
	3.367385522773756e-01
	-4.662628125284400e-01
	3.367385522773756e-01
	0.000000000000000e+00
	-8.030013648058157e-01
	-3.367385529508526e-04
	4.662628134609653e-04
	8.030013656088165e-04
	-8.030013654792922e-04
	3.367385522773747e-13
	-4.662628125284388e-13
	8.030013664118178e-04
52		1.731199999999997e-03
	-6.135438791311514e-01
	-4.965157412435652e-01
	1.170281378875862e-01
	-4.965157412435652e-01
	1.170281378875862e-01
	0.000000000000000e+00
	-6.135438791311514e-01
	-1.170281381216424e-04
	4.965157422365964e-04
	6.135438797446949e-04
	-6.135438793652073e-04
	1.170281378875859e-13
	-4.965157412435640e-13
	6.135438803582387e-04
53		1.771199999999997e-03
	-3.639372855697940e-01
	-4.955707598791958e-01
	-1.316334743094017e-01
	-4.955707598791958e-01
	-1.316334743094017e-01
	0.000000000000000e+00
	-3.639372855697940e-01
	1.316334745726686e-04
	4.955707608703370e-04
	3.639372859337311e-04
	-3.639372853065269e-04
	-1.316334743094013e-13
	-4.955707598791944e-13
	3.639372862976684e-04
54		1.811199999999997e-03
	-1.157565214928437e-01
	-4.634872450898535e-01
	-3.477307235970098e-01
	-4.634872450898535e-01
	-3.477307235970098e-01
	0.000000000000000e+00
	-1.157565214928437e-01
	3.477307242924711e-04
	4.634872460168276e-04
	1.157565216086001e-04
	-1.157565207973821e-04
	-3.477307235970089e-13
	-4.634872450898523e-13
